T3EEC 000:003.067   SEGGER J-Link V7.54d Log File
T3EEC 000:003.212   DLL Compiled: Sep 28 2021 16:14:07
T3EEC 000:003.218   Logging started @ 2026-08-05 08:46
T3EEC 000:003.222 - 3.225ms
T3EEC 000:003.233 JLINK_SetWarnOutHandler(...)
T3EEC 000:003.240 - 0.009ms
T3EEC 000:003.246 JLINK_OpenEx(...)
T3EEC 000:004.846   Firmware: J-Link ARM V8 compiled Nov 28 2014 13:44:46
T3EEC 000:005.304   Firmware: J-Link ARM V8 compiled Nov 28 2014 13:44:46
T3EEC 000:008.614   Hardware: V8.00
T3EEC 000:008.629   S/N: 805251123
T3EEC 000:008.633   OEM: SEGGER
T3EEC 000:008.636   Feature(s): RDI,FlashDL,FlashBP,JFlash,GDB
T3EEC 000:010.587   TELNET listener socket opened on port 19021
T3EEC 000:010.746   WEBSRV Starting webserver
T3EEC 000:010.886   WEBSRV Webserver running on local port 19080
T3EEC 000:013.613 - 10.373ms returns "O.K."
T3EEC 000:013.631 JLINK_GetEmuCaps()
T3EEC 000:013.636 - 0.005ms returns 0xB9FF7BBF
T3EEC 000:013.640 JLINK_TIF_GetAvailable(...)
T3EEC 000:013.971 - 0.333ms
T3EEC 000:013.977 JLINK_SetErrorOutHandler(...)
T3EEC 000:013.980 - 0.003ms
T3EEC 000:013.989 JLINK_ExecCommand("ProjectFile = "E:\work\Disc_filter\firmware\MDK-ARM\JLinkSettings.ini"", ...). 
T3EEC 000:020.641   Ref file found at: D:\keil5\ARM\Segger\JLinkDevices.ref
T3EEC 000:020.702   XML referenced by ref file: C:\Program Files\SEGGER\JLink\JLinkDevices.xml
T3EEC 000:021.121   C:\Program Files\SEGGER\JLink\JLinkDevices.xml evaluated successfully.
T3EEC 000:036.983 - 23.001ms returns 0x00
T3EEC 000:037.626 JLINK_ExecCommand("Device = STM32F103RC", ...). 
T3EEC 000:038.661   Device "STM32F103RC" selected.
T3EEC 000:038.962 - 1.330ms returns 0x00
T3EEC 000:038.970 JLINK_ExecCommand("DisableConnectionTimeout", ...). 
T3EEC 000:038.975 - 0.002ms returns 0x01
T3EEC 000:038.979 JLINK_GetHardwareVersion()
T3EEC 000:038.982 - 0.004ms returns 80000
T3EEC 000:038.985 JLINK_GetDLLVersion()
T3EEC 000:038.991 - 0.007ms returns 75404
T3EEC 000:038.995 JLINK_GetOEMString(...)
T3EEC 000:039.001 JLINK_GetFirmwareString(...)
T3EEC 000:039.004 - 0.004ms
T3EEC 000:040.217 JLINK_GetDLLVersion()
T3EEC 000:040.223 - 0.007ms returns 75404
T3EEC 000:040.226 JLINK_GetCompileDateTime()
T3EEC 000:040.229 - 0.003ms
T3EEC 000:040.601 JLINK_GetFirmwareString(...)
T3EEC 000:040.610 - 0.010ms
T3EEC 000:040.972 JLINK_GetHardwareVersion()
T3EEC 000:040.976 - 0.005ms returns 80000
T3EEC 000:043.078 JLINK_GetSN()
T3EEC 000:043.086 - 0.009ms returns 805251123
T3EEC 000:044.496 JLINK_GetOEMString(...)
T3EEC 000:046.880 JLINK_TIF_Select(JLINKARM_TIF_SWD)
T3EEC 000:047.830 - 0.954ms returns 0x00
T3EEC 000:047.839 JLINK_HasError()
T3EEC 000:047.847 JLINK_SetSpeed(5000)
T3EEC 000:047.994 - 0.149ms
T3EEC 000:047.999 JLINK_GetId()
T3EEC 000:049.536   InitTarget() start
T3EEC 000:049.549    J-Link Script File: Executing InitTarget()
T3EEC 000:066.200   InitTarget() end
T3EEC 000:068.317   Found SW-DP with ID 0x1BA01477
T3EEC 000:073.638   Old FW that does not support reading DPIDR via DAP jobs
T3EEC 000:080.127   DPv0 detected
T3EEC 000:081.416   Scanning AP map to find all available APs
T3EEC 000:086.592   AP[1]: Stopped AP scan as end of AP map has been reached
T3EEC 000:087.760   AP[0]: AHB-AP (IDR: 0x14770011)
T3EEC 000:088.941   Iterating through AP map to find AHB-AP to use
T3EEC 000:096.065   AP[0]: Core found
T3EEC 000:097.340   AP[0]: AHB-AP ROM base: 0xE00FF000
T3EEC 000:101.858   CPUID register: 0x411FC231. Implementer code: 0x41 (ARM)
T3EEC 000:103.052   Found Cortex-M3 r1p1, Little endian.
T3EEC 000:204.571   -- Max. mem block: 0x00002408
T3EEC 000:204.754   CPU_ReadMem(4 bytes @ 0xE000EDF0)
T3EEC 000:205.312   CPU_WriteMem(4 bytes @ 0xE000EDF0)
T3EEC 000:205.767   CPU_ReadMem(4 bytes @ 0xE0002000)
T3EEC 000:207.638   FPUnit: 6 code (BP) slots and 2 literal slots
T3EEC 000:207.650   CPU_ReadMem(4 bytes @ 0xE000EDFC)
T3EEC 000:208.134   CPU_WriteMem(4 bytes @ 0xE000EDFC)
T3EEC 000:208.591   CPU_ReadMem(4 bytes @ 0xE0001000)
T3EEC 000:209.056   CPU_WriteMem(4 bytes @ 0xE0001000)
T3EEC 000:209.491   CPU_ReadMem(4 bytes @ 0xE000ED88)
T3EEC 000:209.966   CPU_WriteMem(4 bytes @ 0xE000ED88)
T3EEC 000:210.436   CPU_ReadMem(4 bytes @ 0xE000ED88)
T3EEC 000:210.890   CPU_WriteMem(4 bytes @ 0xE000ED88)
T3EEC 000:212.776   CoreSight components:
T3EEC 000:214.122   ROMTbl[0] @ E00FF000
T3EEC 000:214.134   CPU_ReadMem(64 bytes @ 0xE00FF000)
T3EEC 000:214.994   CPU_ReadMem(32 bytes @ 0xE000EFE0)
T3EEC 000:216.958   [0][0]: E000E000 CID B105E00D PID 001BB000 SCS
T3EEC 000:216.969   CPU_ReadMem(32 bytes @ 0xE0001FE0)
T3EEC 000:218.909   [0][1]: E0001000 CID B105E00D PID 001BB002 DWT
T3EEC 000:218.919   CPU_ReadMem(32 bytes @ 0xE0002FE0)
T3EEC 000:220.937   [0][2]: E0002000 CID B105E00D PID 000BB003 FPB
T3EEC 000:220.948   CPU_ReadMem(32 bytes @ 0xE0000FE0)
T3EEC 000:222.903   [0][3]: E0000000 CID B105E00D PID 001BB001 ITM
T3EEC 000:222.913   CPU_ReadMem(32 bytes @ 0xE0040FE0)
T3EEC 000:224.868   [0][4]: E0040000 CID B105900D PID 001BB923 TPIU-Lite
T3EEC 000:224.878   CPU_ReadMem(32 bytes @ 0xE0041FE0)
T3EEC 000:227.083   [0][5]: E0041000 CID B105900D PID 101BB924 ETM-M3
T3EEC 000:227.668 - 179.670ms returns 0x1BA01477
T3EEC 000:227.677 JLINK_GetDLLVersion()
T3EEC 000:227.680 - 0.003ms returns 75404
T3EEC 000:227.707 JLINK_CORE_GetFound()
T3EEC 000:227.710 - 0.004ms returns 0x30000FF
T3EEC 000:227.714 JLINK_GetDebugInfo(0x100 = JLINKARM_ROM_TABLE_ADDR_INDEX)
T3EEC 000:227.718   Value=0xE00FF000
T3EEC 000:227.721 - 0.008ms returns 0
T3EEC 000:229.021 JLINK_GetDebugInfo(0x100 = JLINKARM_ROM_TABLE_ADDR_INDEX)
T3EEC 000:229.028   Value=0xE00FF000
T3EEC 000:229.032 - 0.012ms returns 0
T3EEC 000:229.036 JLINK_GetDebugInfo(0x101 = JLINKARM_DEBUG_INFO_ETM_ADDR_INDEX)
T3EEC 000:229.038   Value=0xE0041000
T3EEC 000:229.042 - 0.007ms returns 0
T3EEC 000:229.045 JLINK_ReadMemEx(0xE0041FD0, 0x20 Bytes, Flags = 0x02000004)
T3EEC 000:229.061   CPU_ReadMem(32 bytes @ 0xE0041FD0)
T3EEC 000:229.649   Data:  04 00 00 00 00 00 00 00 00 00 00 00 00 00 00 00 ...
T3EEC 000:229.653 - 0.608ms returns 32 (0x20)
T3EEC 000:229.657 JLINK_GetDebugInfo(0x102 = JLINKARM_DEBUG_INFO_MTB_ADDR_INDEX)
T3EEC 000:229.659   Value=0x00000000
T3EEC 000:229.663 - 0.007ms returns 0
T3EEC 000:229.666 JLINK_GetDebugInfo(0x103 = JLINKARM_DEBUG_INFO_TPIU_ADDR_INDEX)
T3EEC 000:229.668   Value=0xE0040000
T3EEC 000:229.672 - 0.007ms returns 0
T3EEC 000:229.675 JLINK_GetDebugInfo(0x104 = JLINKARM_DEBUG_INFO_ITM_ADDR_INDEX)
T3EEC 000:229.677   Value=0xE0000000
T3EEC 000:229.681 - 0.007ms returns 0
T3EEC 000:229.684 JLINK_GetDebugInfo(0x105 = JLINKARM_DEBUG_INFO_DWT_ADDR_INDEX)
T3EEC 000:229.686   Value=0xE0001000
T3EEC 000:229.689 - 0.007ms returns 0
T3EEC 000:229.693 JLINK_GetDebugInfo(0x106 = JLINKARM_DEBUG_INFO_FPB_ADDR_INDEX)
T3EEC 000:229.695   Value=0xE0002000
T3EEC 000:229.698 - 0.007ms returns 0
T3EEC 000:229.702 JLINK_GetDebugInfo(0x107 = JLINKARM_DEBUG_INFO_NVIC_ADDR_INDEX)
T3EEC 000:229.704   Value=0xE000E000
T3EEC 000:229.707 - 0.007ms returns 0
T3EEC 000:229.710 JLINK_GetDebugInfo(0x10C = JLINKARM_DEBUG_INFO_DBG_ADDR_INDEX)
T3EEC 000:229.713   Value=0xE000EDF0
T3EEC 000:229.716 - 0.007ms returns 0
T3EEC 000:229.719 JLINK_GetDebugInfo(0x01 = Unknown)
T3EEC 000:229.722   Value=0x00000000
T3EEC 000:229.725 - 0.007ms returns 0
T3EEC 000:229.728 JLINK_ReadMemU32(0xE000ED00, 0x1 Items)
T3EEC 000:229.733   CPU_ReadMem(4 bytes @ 0xE000ED00)
T3EEC 000:230.152   Data:  31 C2 1F 41
T3EEC 000:230.174   Debug reg: CPUID
T3EEC 000:230.190 - 0.462ms returns 1 (0x1)
T3EEC 000:230.193 JLINK_GetDebugInfo(0x10F = JLINKARM_DEBUG_INFO_HAS_CORTEX_M_SECURITY_EXT_INDEX)
T3EEC 000:230.196   Value=0x00000000
T3EEC 000:230.199 - 0.007ms returns 0
T3EEC 000:230.203 JLINK_HasError()
T3EEC 000:230.206 JLINK_SetResetType(JLINKARM_CM3_RESET_TYPE_NORMAL)
T3EEC 000:230.209 - 0.003ms returns JLINKARM_CM3_RESET_TYPE_NORMAL
T3EEC 000:230.212 JLINK_Reset()
T3EEC 000:230.219   CPU is running
T3EEC 000:230.223   CPU_WriteMem(4 bytes @ 0xE000EDF0)
T3EEC 000:230.623   CPU is running
T3EEC 000:230.627   CPU_WriteMem(4 bytes @ 0xE000EDFC)
T3EEC 000:232.315   Reset: Halt core after reset via DEMCR.VC_CORERESET.
T3EEC 000:234.190   Reset: Reset device via AIRCR.SYSRESETREQ.
T3EEC 000:234.198   CPU is running
T3EEC 000:234.203   CPU_WriteMem(4 bytes @ 0xE000ED0C)
T3EEC 000:286.687   CPU_ReadMem(4 bytes @ 0xE000EDF0)
T3EEC 000:287.119   CPU_ReadMem(4 bytes @ 0xE000EDF0)
T3EEC 000:287.583   CPU is running
T3EEC 000:287.593   CPU_WriteMem(4 bytes @ 0xE000EDF0)
T3EEC 000:288.065   CPU is running
T3EEC 000:288.079   CPU_WriteMem(4 bytes @ 0xE000EDFC)
T3EEC 000:293.604   CPU_ReadMem(4 bytes @ 0xE000EDF0)
T3EEC 000:296.482   CPU_WriteMem(4 bytes @ 0xE0002000)
T3EEC 000:296.917   CPU_ReadMem(4 bytes @ 0xE000EDFC)
T3EEC 000:297.355   CPU_ReadMem(4 bytes @ 0xE0001000)
T3EEC 000:297.786 - 67.578ms
T3EEC 000:297.801 JLINK_Halt()
T3EEC 000:297.806 - 0.007ms returns 0x00
T3EEC 000:297.814 JLINK_ReadMemU32(0xE000EDF0, 0x1 Items)
T3EEC 000:297.826   CPU_ReadMem(4 bytes @ 0xE000EDF0)
T3EEC 000:298.231   Data:  03 00 03 00
T3EEC 000:298.239   Debug reg: DHCSR
T3EEC 000:298.244 - 0.432ms returns 1 (0x1)
T3EEC 000:298.252 JLINK_WriteU32_64(0xE000EDF0, 0xA05F0003)
T3EEC 000:298.257   Debug reg: DHCSR
T3EEC 000:315.128   CPU_WriteMem(4 bytes @ 0xE000EDF0)
T3EEC 000:315.588 - 17.340ms returns 0 (0x00000000)
T3EEC 000:315.600 JLINK_WriteU32_64(0xE000EDFC, 0x01000000)
T3EEC 000:315.606   Debug reg: DEMCR
T3EEC 000:315.617   CPU_WriteMem(4 bytes @ 0xE000EDFC)
T3EEC 000:316.087 - 0.491ms returns 0 (0x00000000)
T3EEC 000:325.630 JLINK_GetHWStatus(...)
T3EEC 000:325.882 - 0.260ms returns 0
T3EEC 000:330.280 JLINK_GetNumBPUnits(Type = 0xFFFFFF00)
T3EEC 000:330.291 - 0.012ms returns 0x06
T3EEC 000:330.295 JLINK_GetNumBPUnits(Type = 0xF0)
T3EEC 000:330.298 - 0.003ms returns 0x2000
T3EEC 000:330.301 JLINK_GetNumWPUnits()
T3EEC 000:330.303 - 0.003ms returns 4
T3EEC 000:333.717 JLINK_GetSpeed()
T3EEC 000:333.724 - 0.009ms returns 4000
T3EEC 000:336.536 JLINK_ReadMemU32(0xE000E004, 0x1 Items)
T3EEC 000:336.554   CPU_ReadMem(4 bytes @ 0xE000E004)
T3EEC 000:337.078   Data:  01 00 00 00
T3EEC 000:337.094 - 0.561ms returns 1 (0x1)
T3EEC 000:337.103 JLINK_ReadMemU32(0xE000E004, 0x1 Items)
T3EEC 000:337.116   CPU_ReadMem(4 bytes @ 0xE000E004)
T3EEC 000:337.567   Data:  01 00 00 00
T3EEC 000:337.578 - 0.476ms returns 1 (0x1)
T3EEC 000:337.586 JLINK_WriteMemEx(0xE0001000, 0x0000001C Bytes, Flags = 0x02000004)
T3EEC 000:337.591   Data:  01 00 00 00 00 00 00 00 00 00 00 00 00 00 00 00 ...
T3EEC 000:337.626   CPU_WriteMem(28 bytes @ 0xE0001000)
T3EEC 000:338.231 - 0.649ms returns 0x1C
T3EEC 000:338.244 JLINK_Halt()
T3EEC 000:338.249 - 0.007ms returns 0x00
T3EEC 000:338.255 JLINK_IsHalted()
T3EEC 000:338.260 - 0.007ms returns TRUE
T3EEC 000:340.922 JLINK_WriteMem(0x20000000, 0x164 Bytes, ...)
T3EEC 000:340.932   Data:  00 BE 0A E0 0D 78 2D 06 68 40 08 24 40 00 00 D3 ...
T3EEC 000:341.132   CPU_WriteMem(356 bytes @ 0x20000000)
T3EEC 000:343.772 - 2.857ms returns 0x164
T3EEC 000:343.813 JLINK_HasError()
T3EEC 000:343.818 JLINK_WriteReg(R0, 0x08000000)
T3EEC 000:343.828 - 0.011ms returns 0
T3EEC 000:343.831 JLINK_WriteReg(R1, 0x007A1200)
T3EEC 000:343.834 - 0.004ms returns 0
T3EEC 000:343.837 JLINK_WriteReg(R2, 0x00000001)
T3EEC 000:343.840 - 0.003ms returns 0
T3EEC 000:343.843 JLINK_WriteReg(R3, 0x00000000)
T3EEC 000:343.845 - 0.003ms returns 0
T3EEC 000:343.848 JLINK_WriteReg(R4, 0x00000000)
T3EEC 000:343.851 - 0.003ms returns 0
T3EEC 000:343.854 JLINK_WriteReg(R5, 0x00000000)
T3EEC 000:343.857 - 0.003ms returns 0
T3EEC 000:343.860 JLINK_WriteReg(R6, 0x00000000)
T3EEC 000:343.862 - 0.003ms returns 0
T3EEC 000:343.865 JLINK_WriteReg(R7, 0x00000000)
T3EEC 000:343.868 - 0.003ms returns 0
T3EEC 000:343.871 JLINK_WriteReg(R8, 0x00000000)
T3EEC 000:344.067 - 0.197ms returns 0
T3EEC 000:344.072 JLINK_WriteReg(R9, 0x20000160)
T3EEC 000:344.075 - 0.004ms returns 0
T3EEC 000:344.078 JLINK_WriteReg(R10, 0x00000000)
T3EEC 000:344.081 - 0.003ms returns 0
T3EEC 000:344.084 JLINK_WriteReg(R11, 0x00000000)
T3EEC 000:344.087 - 0.003ms returns 0
T3EEC 000:344.090 JLINK_WriteReg(R12, 0x00000000)
T3EEC 000:344.127 - 0.038ms returns 0
T3EEC 000:344.131 JLINK_WriteReg(R13 (SP), 0x20001000)
T3EEC 000:344.135 - 0.004ms returns 0
T3EEC 000:344.138 JLINK_WriteReg(R14, 0x20000001)
T3EEC 000:344.140 - 0.003ms returns 0
T3EEC 000:344.143 JLINK_WriteReg(R15 (PC), 0x20000038)
T3EEC 000:349.790 - 5.648ms returns 0
T3EEC 000:349.795 JLINK_WriteReg(XPSR, 0x01000000)
T3EEC 000:349.799 - 0.004ms returns 0
T3EEC 000:349.802 JLINK_WriteReg(MSP, 0x20001000)
T3EEC 000:349.805 - 0.004ms returns 0
T3EEC 000:349.808 JLINK_WriteReg(PSP, 0x20001000)
T3EEC 000:349.810 - 0.003ms returns 0
T3EEC 000:349.813 JLINK_WriteReg(CFBP, 0x00000000)
T3EEC 000:349.816 - 0.004ms returns 0
T3EEC 000:349.819 JLINK_SetBPEx(Addr = 0x20000000, Type = 0xFFFFFFF2)
T3EEC 000:349.830   CPU_ReadMem(2 bytes @ 0x20000000)
T3EEC 000:350.427 - 0.617ms returns 0x00000001
T3EEC 000:350.441 JLINK_Go()
T3EEC 000:350.447   CPU_WriteMem(2 bytes @ 0x20000000)
T3EEC 000:350.980   CPU_ReadMem(4 bytes @ 0xE0001000)
T3EEC 000:351.447   CPU_WriteMem(4 bytes @ 0xE0002008)
T3EEC 000:351.463   CPU_WriteMem(4 bytes @ 0xE000200C)
T3EEC 000:351.467   CPU_WriteMem(4 bytes @ 0xE0002010)
T3EEC 000:351.470   CPU_WriteMem(4 bytes @ 0xE0002014)
T3EEC 000:351.474   CPU_WriteMem(4 bytes @ 0xE0002018)
T3EEC 000:351.477   CPU_WriteMem(4 bytes @ 0xE000201C)
T3EEC 000:353.386   CPU_WriteMem(4 bytes @ 0xE0001004)
T3EEC 000:356.119 - 5.691ms
T3EEC 000:356.140 JLINK_IsHalted()
T3EEC 000:358.534   CPU_ReadMem(2 bytes @ 0x20000000)
T3EEC 000:359.058 - 2.923ms returns TRUE
T3EEC 000:359.067 JLINK_ReadReg(R15 (PC))
T3EEC 000:359.072 - 0.007ms returns 0x20000000
T3EEC 000:359.076 JLINK_ClrBPEx(BPHandle = 0x00000001)
T3EEC 000:359.079 - 0.004ms returns 0x00
T3EEC 000:359.082 JLINK_ReadReg(R0)
T3EEC 000:359.086 - 0.004ms returns 0x00000000
T3EEC 000:359.662 JLINK_HasError()
T3EEC 000:359.671 JLINK_WriteReg(R0, 0x08000000)
T3EEC 000:359.676 - 0.006ms returns 0
T3EEC 000:359.680 JLINK_WriteReg(R1, 0x00000800)
T3EEC 000:359.683 - 0.004ms returns 0
T3EEC 000:359.686 JLINK_WriteReg(R2, 0x000000FF)
T3EEC 000:359.688 - 0.003ms returns 0
T3EEC 000:359.691 JLINK_WriteReg(R3, 0x00000000)
T3EEC 000:359.694 - 0.003ms returns 0
T3EEC 000:359.697 JLINK_WriteReg(R4, 0x00000000)
T3EEC 000:359.700 - 0.003ms returns 0
T3EEC 000:359.703 JLINK_WriteReg(R5, 0x00000000)
T3EEC 000:359.706 - 0.003ms returns 0
T3EEC 000:359.709 JLINK_WriteReg(R6, 0x00000000)
T3EEC 000:359.711 - 0.003ms returns 0
T3EEC 000:359.714 JLINK_WriteReg(R7, 0x00000000)
T3EEC 000:359.717 - 0.003ms returns 0
T3EEC 000:359.720 JLINK_WriteReg(R8, 0x00000000)
T3EEC 000:359.722 - 0.003ms returns 0
T3EEC 000:359.725 JLINK_WriteReg(R9, 0x20000160)
T3EEC 000:359.728 - 0.003ms returns 0
T3EEC 000:359.731 JLINK_WriteReg(R10, 0x00000000)
T3EEC 000:359.734 - 0.003ms returns 0
T3EEC 000:359.737 JLINK_WriteReg(R11, 0x00000000)
T3EEC 000:359.739 - 0.003ms returns 0
T3EEC 000:359.742 JLINK_WriteReg(R12, 0x00000000)
T3EEC 000:359.745 - 0.003ms returns 0
T3EEC 000:359.748 JLINK_WriteReg(R13 (SP), 0x20001000)
T3EEC 000:359.751 - 0.004ms returns 0
T3EEC 000:359.754 JLINK_WriteReg(R14, 0x20000001)
T3EEC 000:359.757 - 0.003ms returns 0
T3EEC 000:359.760 JLINK_WriteReg(R15 (PC), 0x20000020)
T3EEC 000:359.762 - 0.004ms returns 0
T3EEC 000:359.765 JLINK_WriteReg(XPSR, 0x01000000)
T3EEC 000:359.768 - 0.003ms returns 0
T3EEC 000:359.771 JLINK_WriteReg(MSP, 0x20001000)
T3EEC 000:359.774 - 0.003ms returns 0
T3EEC 000:359.777 JLINK_WriteReg(PSP, 0x20001000)
T3EEC 000:359.780 - 0.003ms returns 0
T3EEC 000:359.783 JLINK_WriteReg(CFBP, 0x00000000)
T3EEC 000:359.785 - 0.003ms returns 0
T3EEC 000:359.788 JLINK_SetBPEx(Addr = 0x20000000, Type = 0xFFFFFFF2)
T3EEC 000:359.792 - 0.004ms returns 0x00000002
T3EEC 000:359.795 JLINK_Go()
T3EEC 000:359.803   CPU_ReadMem(4 bytes @ 0xE0001000)
T3EEC 000:362.639 - 2.874ms
T3EEC 000:362.683 JLINK_IsHalted()
T3EEC 000:363.101 - 0.426ms returns FALSE
T3EEC 000:363.123 JLINK_HasError()
T3EEC 000:371.830 JLINK_IsHalted()
T3EEC 000:374.305   CPU_ReadMem(2 bytes @ 0x20000000)
T3EEC 000:374.734 - 2.906ms returns TRUE
T3EEC 000:374.748 JLINK_ReadReg(R15 (PC))
T3EEC 000:374.768 - 0.027ms returns 0x20000000
T3EEC 000:374.782 JLINK_ClrBPEx(BPHandle = 0x00000002)
T3EEC 000:374.785 - 0.004ms returns 0x00
T3EEC 000:374.788 JLINK_ReadReg(R0)
T3EEC 000:374.791 - 0.004ms returns 0x00000000
T3EEC 000:374.996 JLINK_HasError()
T3EEC 000:375.001 JLINK_WriteReg(R0, 0x08000800)
T3EEC 000:375.005 - 0.004ms returns 0
T3EEC 000:375.008 JLINK_WriteReg(R1, 0x00000800)
T3EEC 000:375.011 - 0.004ms returns 0
T3EEC 000:375.014 JLINK_WriteReg(R2, 0x000000FF)
T3EEC 000:375.017 - 0.003ms returns 0
T3EEC 000:375.020 JLINK_WriteReg(R3, 0x00000000)
T3EEC 000:375.022 - 0.003ms returns 0
T3EEC 000:375.025 JLINK_WriteReg(R4, 0x00000000)
T3EEC 000:375.028 - 0.003ms returns 0
T3EEC 000:375.031 JLINK_WriteReg(R5, 0x00000000)
T3EEC 000:375.033 - 0.003ms returns 0
T3EEC 000:375.036 JLINK_WriteReg(R6, 0x00000000)
T3EEC 000:375.039 - 0.003ms returns 0
T3EEC 000:375.042 JLINK_WriteReg(R7, 0x00000000)
T3EEC 000:375.045 - 0.003ms returns 0
T3EEC 000:375.048 JLINK_WriteReg(R8, 0x00000000)
T3EEC 000:375.050 - 0.003ms returns 0
T3EEC 000:375.053 JLINK_WriteReg(R9, 0x20000160)
T3EEC 000:375.056 - 0.003ms returns 0
T3EEC 000:375.059 JLINK_WriteReg(R10, 0x00000000)
T3EEC 000:375.061 - 0.003ms returns 0
T3EEC 000:375.064 JLINK_WriteReg(R11, 0x00000000)
T3EEC 000:375.067 - 0.003ms returns 0
T3EEC 000:375.070 JLINK_WriteReg(R12, 0x00000000)
T3EEC 000:375.073 - 0.003ms returns 0
T3EEC 000:375.076 JLINK_WriteReg(R13 (SP), 0x20001000)
T3EEC 000:375.079 - 0.004ms returns 0
T3EEC 000:375.082 JLINK_WriteReg(R14, 0x20000001)
T3EEC 000:375.084 - 0.003ms returns 0
T3EEC 000:375.087 JLINK_WriteReg(R15 (PC), 0x20000020)
T3EEC 000:375.090 - 0.003ms returns 0
T3EEC 000:375.093 JLINK_WriteReg(XPSR, 0x01000000)
T3EEC 000:375.096 - 0.004ms returns 0
T3EEC 000:375.099 JLINK_WriteReg(MSP, 0x20001000)
T3EEC 000:375.101 - 0.003ms returns 0
T3EEC 000:375.104 JLINK_WriteReg(PSP, 0x20001000)
T3EEC 000:375.107 - 0.003ms returns 0
T3EEC 000:375.110 JLINK_WriteReg(CFBP, 0x00000000)
T3EEC 000:375.113 - 0.003ms returns 0
T3EEC 000:375.116 JLINK_SetBPEx(Addr = 0x20000000, Type = 0xFFFFFFF2)
T3EEC 000:375.119 - 0.004ms returns 0x00000003
T3EEC 000:375.122 JLINK_Go()
T3EEC 000:375.130   CPU_ReadMem(4 bytes @ 0xE0001000)
T3EEC 000:377.783 - 2.683ms
T3EEC 000:377.817 JLINK_IsHalted()
T3EEC 000:378.293 - 0.483ms returns FALSE
T3EEC 000:378.315 JLINK_HasError()
T3EEC 000:379.406 JLINK_IsHalted()
T3EEC 000:379.839 - 0.441ms returns FALSE
T3EEC 000:379.861 JLINK_HasError()
T3EEC 000:381.414 JLINK_IsHalted()
T3EEC 000:383.830   CPU_ReadMem(2 bytes @ 0x20000000)
T3EEC 000:384.329 - 2.924ms returns TRUE
T3EEC 000:384.352 JLINK_ReadReg(R15 (PC))
T3EEC 000:384.360 - 0.008ms returns 0x20000000
T3EEC 000:384.363 JLINK_ClrBPEx(BPHandle = 0x00000003)
T3EEC 000:384.366 - 0.004ms returns 0x00
T3EEC 000:384.369 JLINK_ReadReg(R0)
T3EEC 000:384.372 - 0.004ms returns 0x00000000
T3EEC 000:384.591 JLINK_HasError()
T3EEC 000:384.596 JLINK_WriteReg(R0, 0x08001000)
T3EEC 000:384.600 - 0.005ms returns 0
T3EEC 000:384.603 JLINK_WriteReg(R1, 0x00000800)
T3EEC 000:384.606 - 0.004ms returns 0
T3EEC 000:384.609 JLINK_WriteReg(R2, 0x000000FF)
T3EEC 000:384.611 - 0.003ms returns 0
T3EEC 000:384.614 JLINK_WriteReg(R3, 0x00000000)
T3EEC 000:384.617 - 0.003ms returns 0
T3EEC 000:384.620 JLINK_WriteReg(R4, 0x00000000)
T3EEC 000:384.623 - 0.003ms returns 0
T3EEC 000:384.626 JLINK_WriteReg(R5, 0x00000000)
T3EEC 000:384.628 - 0.003ms returns 0
T3EEC 000:384.631 JLINK_WriteReg(R6, 0x00000000)
T3EEC 000:384.634 - 0.003ms returns 0
T3EEC 000:384.637 JLINK_WriteReg(R7, 0x00000000)
T3EEC 000:384.640 - 0.003ms returns 0
T3EEC 000:384.642 JLINK_WriteReg(R8, 0x00000000)
T3EEC 000:384.645 - 0.003ms returns 0
T3EEC 000:384.648 JLINK_WriteReg(R9, 0x20000160)
T3EEC 000:384.651 - 0.003ms returns 0
T3EEC 000:384.654 JLINK_WriteReg(R10, 0x00000000)
T3EEC 000:384.656 - 0.003ms returns 0
T3EEC 000:384.659 JLINK_WriteReg(R11, 0x00000000)
T3EEC 000:384.666 - 0.008ms returns 0
T3EEC 000:384.669 JLINK_WriteReg(R12, 0x00000000)
T3EEC 000:384.672 - 0.003ms returns 0
T3EEC 000:384.675 JLINK_WriteReg(R13 (SP), 0x20001000)
T3EEC 000:384.678 - 0.004ms returns 0
T3EEC 000:384.681 JLINK_WriteReg(R14, 0x20000001)
T3EEC 000:384.684 - 0.003ms returns 0
T3EEC 000:384.687 JLINK_WriteReg(R15 (PC), 0x20000020)
T3EEC 000:384.689 - 0.003ms returns 0
T3EEC 000:384.692 JLINK_WriteReg(XPSR, 0x01000000)
T3EEC 000:384.695 - 0.003ms returns 0
T3EEC 000:384.698 JLINK_WriteReg(MSP, 0x20001000)
T3EEC 000:384.701 - 0.003ms returns 0
T3EEC 000:384.704 JLINK_WriteReg(PSP, 0x20001000)
T3EEC 000:384.706 - 0.003ms returns 0
T3EEC 000:384.709 JLINK_WriteReg(CFBP, 0x00000000)
T3EEC 000:384.712 - 0.003ms returns 0
T3EEC 000:384.715 JLINK_SetBPEx(Addr = 0x20000000, Type = 0xFFFFFFF2)
T3EEC 000:384.718 - 0.004ms returns 0x00000004
T3EEC 000:384.721 JLINK_Go()
T3EEC 000:384.729   CPU_ReadMem(4 bytes @ 0xE0001000)
T3EEC 000:387.412 - 2.704ms
T3EEC 000:387.441 JLINK_IsHalted()
T3EEC 000:387.891 - 0.458ms returns FALSE
T3EEC 000:387.913 JLINK_HasError()
T3EEC 000:389.472 JLINK_IsHalted()
T3EEC 000:389.892 - 0.429ms returns FALSE
T3EEC 000:389.914 JLINK_HasError()
T3EEC 000:391.553 JLINK_IsHalted()
T3EEC 000:394.166   CPU_ReadMem(2 bytes @ 0x20000000)
T3EEC 000:394.645 - 3.100ms returns TRUE
T3EEC 000:394.671 JLINK_ReadReg(R15 (PC))
T3EEC 000:394.675 - 0.005ms returns 0x20000000
T3EEC 000:394.699 JLINK_ClrBPEx(BPHandle = 0x00000004)
T3EEC 000:394.703 - 0.004ms returns 0x00
T3EEC 000:394.706 JLINK_ReadReg(R0)
T3EEC 000:394.709 - 0.004ms returns 0x00000000
T3EEC 000:394.904 JLINK_HasError()
T3EEC 000:394.908 JLINK_WriteReg(R0, 0x08001800)
T3EEC 000:394.912 - 0.005ms returns 0
T3EEC 000:394.915 JLINK_WriteReg(R1, 0x00000800)
T3EEC 000:394.918 - 0.003ms returns 0
T3EEC 000:394.921 JLINK_WriteReg(R2, 0x000000FF)
T3EEC 000:394.924 - 0.003ms returns 0
T3EEC 000:394.927 JLINK_WriteReg(R3, 0x00000000)
T3EEC 000:394.929 - 0.003ms returns 0
T3EEC 000:394.932 JLINK_WriteReg(R4, 0x00000000)
T3EEC 000:394.935 - 0.003ms returns 0
T3EEC 000:394.938 JLINK_WriteReg(R5, 0x00000000)
T3EEC 000:394.941 - 0.003ms returns 0
T3EEC 000:394.944 JLINK_WriteReg(R6, 0x00000000)
T3EEC 000:394.946 - 0.003ms returns 0
T3EEC 000:394.949 JLINK_WriteReg(R7, 0x00000000)
T3EEC 000:394.952 - 0.003ms returns 0
T3EEC 000:394.955 JLINK_WriteReg(R8, 0x00000000)
T3EEC 000:394.958 - 0.003ms returns 0
T3EEC 000:394.961 JLINK_WriteReg(R9, 0x20000160)
T3EEC 000:394.963 - 0.003ms returns 0
T3EEC 000:394.966 JLINK_WriteReg(R10, 0x00000000)
T3EEC 000:394.969 - 0.003ms returns 0
T3EEC 000:394.972 JLINK_WriteReg(R11, 0x00000000)
T3EEC 000:394.974 - 0.003ms returns 0
T3EEC 000:394.977 JLINK_WriteReg(R12, 0x00000000)
T3EEC 000:394.980 - 0.003ms returns 0
T3EEC 000:394.983 JLINK_WriteReg(R13 (SP), 0x20001000)
T3EEC 000:394.986 - 0.004ms returns 0
T3EEC 000:394.989 JLINK_WriteReg(R14, 0x20000001)
T3EEC 000:394.992 - 0.003ms returns 0
T3EEC 000:394.995 JLINK_WriteReg(R15 (PC), 0x20000020)
T3EEC 000:394.997 - 0.003ms returns 0
T3EEC 000:395.000 JLINK_WriteReg(XPSR, 0x01000000)
T3EEC 000:395.003 - 0.003ms returns 0
T3EEC 000:395.006 JLINK_WriteReg(MSP, 0x20001000)
T3EEC 000:395.008 - 0.003ms returns 0
T3EEC 000:395.011 JLINK_WriteReg(PSP, 0x20001000)
T3EEC 000:395.014 - 0.003ms returns 0
T3EEC 000:395.017 JLINK_WriteReg(CFBP, 0x00000000)
T3EEC 000:395.020 - 0.003ms returns 0
T3EEC 000:395.023 JLINK_SetBPEx(Addr = 0x20000000, Type = 0xFFFFFFF2)
T3EEC 000:395.026 - 0.004ms returns 0x00000005
T3EEC 000:395.029 JLINK_Go()
T3EEC 000:395.036   CPU_ReadMem(4 bytes @ 0xE0001000)
T3EEC 000:397.753 - 2.729ms
T3EEC 000:397.762 JLINK_IsHalted()
T3EEC 000:398.137 - 0.387ms returns FALSE
T3EEC 000:398.165 JLINK_HasError()
T3EEC 000:399.600 JLINK_IsHalted()
T3EEC 000:400.066 - 0.474ms returns FALSE
T3EEC 000:400.087 JLINK_HasError()
T3EEC 000:401.603 JLINK_IsHalted()
T3EEC 000:404.130   CPU_ReadMem(2 bytes @ 0x20000000)
T3EEC 000:404.578 - 2.992ms returns TRUE
T3EEC 000:404.617 JLINK_ReadReg(R15 (PC))
T3EEC 000:404.623 - 0.007ms returns 0x20000000
T3EEC 000:404.626 JLINK_ClrBPEx(BPHandle = 0x00000005)
T3EEC 000:404.629 - 0.004ms returns 0x00
T3EEC 000:404.632 JLINK_ReadReg(R0)
T3EEC 000:404.635 - 0.003ms returns 0x00000000
T3EEC 000:404.819 JLINK_HasError()
T3EEC 000:404.824 JLINK_WriteReg(R0, 0x08002000)
T3EEC 000:404.827 - 0.004ms returns 0
T3EEC 000:404.830 JLINK_WriteReg(R1, 0x00000800)
T3EEC 000:404.833 - 0.004ms returns 0
T3EEC 000:404.836 JLINK_WriteReg(R2, 0x000000FF)
T3EEC 000:404.839 - 0.004ms returns 0
T3EEC 000:404.842 JLINK_WriteReg(R3, 0x00000000)
T3EEC 000:404.845 - 0.004ms returns 0
T3EEC 000:404.848 JLINK_WriteReg(R4, 0x00000000)
T3EEC 000:404.850 - 0.003ms returns 0
T3EEC 000:404.853 JLINK_WriteReg(R5, 0x00000000)
T3EEC 000:404.856 - 0.003ms returns 0
T3EEC 000:404.859 JLINK_WriteReg(R6, 0x00000000)
T3EEC 000:404.862 - 0.003ms returns 0
T3EEC 000:404.865 JLINK_WriteReg(R7, 0x00000000)
T3EEC 000:404.867 - 0.003ms returns 0
T3EEC 000:404.870 JLINK_WriteReg(R8, 0x00000000)
T3EEC 000:404.873 - 0.003ms returns 0
T3EEC 000:404.876 JLINK_WriteReg(R9, 0x20000160)
T3EEC 000:404.878 - 0.003ms returns 0
T3EEC 000:404.881 JLINK_WriteReg(R10, 0x00000000)
T3EEC 000:404.884 - 0.004ms returns 0
T3EEC 000:404.887 JLINK_WriteReg(R11, 0x00000000)
T3EEC 000:404.890 - 0.003ms returns 0
T3EEC 000:404.893 JLINK_WriteReg(R12, 0x00000000)
T3EEC 000:404.895 - 0.003ms returns 0
T3EEC 000:404.898 JLINK_WriteReg(R13 (SP), 0x20001000)
T3EEC 000:404.901 - 0.004ms returns 0
T3EEC 000:404.904 JLINK_WriteReg(R14, 0x20000001)
T3EEC 000:404.907 - 0.003ms returns 0
T3EEC 000:404.910 JLINK_WriteReg(R15 (PC), 0x20000020)
T3EEC 000:404.912 - 0.003ms returns 0
T3EEC 000:404.915 JLINK_WriteReg(XPSR, 0x01000000)
T3EEC 000:404.918 - 0.003ms returns 0
T3EEC 000:404.921 JLINK_WriteReg(MSP, 0x20001000)
T3EEC 000:404.924 - 0.003ms returns 0
T3EEC 000:404.927 JLINK_WriteReg(PSP, 0x20001000)
T3EEC 000:404.929 - 0.003ms returns 0
T3EEC 000:404.932 JLINK_WriteReg(CFBP, 0x00000000)
T3EEC 000:404.935 - 0.003ms returns 0
T3EEC 000:404.938 JLINK_SetBPEx(Addr = 0x20000000, Type = 0xFFFFFFF2)
T3EEC 000:404.941 - 0.004ms returns 0x00000006
T3EEC 000:404.944 JLINK_Go()
T3EEC 000:404.950   CPU_ReadMem(4 bytes @ 0xE0001000)
T3EEC 000:407.671 - 2.729ms
T3EEC 000:407.676 JLINK_IsHalted()
T3EEC 000:408.066 - 0.398ms returns FALSE
T3EEC 000:408.088 JLINK_HasError()
T3EEC 000:410.122 JLINK_IsHalted()
T3EEC 000:410.571 - 0.457ms returns FALSE
T3EEC 000:410.595 JLINK_HasError()
T3EEC 000:412.117 JLINK_IsHalted()
T3EEC 000:414.469   CPU_ReadMem(2 bytes @ 0x20000000)
T3EEC 000:414.889 - 2.782ms returns TRUE
T3EEC 000:414.917 JLINK_ReadReg(R15 (PC))
T3EEC 000:414.922 - 0.006ms returns 0x20000000
T3EEC 000:414.925 JLINK_ClrBPEx(BPHandle = 0x00000006)
T3EEC 000:414.928 - 0.004ms returns 0x00
T3EEC 000:414.931 JLINK_ReadReg(R0)
T3EEC 000:414.934 - 0.004ms returns 0x00000000
T3EEC 000:415.112 JLINK_HasError()
T3EEC 000:415.117 JLINK_WriteReg(R0, 0x00000001)
T3EEC 000:415.121 - 0.005ms returns 0
T3EEC 000:415.124 JLINK_WriteReg(R1, 0x00000800)
T3EEC 000:415.127 - 0.004ms returns 0
T3EEC 000:415.130 JLINK_WriteReg(R2, 0x000000FF)
T3EEC 000:415.132 - 0.003ms returns 0
T3EEC 000:415.135 JLINK_WriteReg(R3, 0x00000000)
T3EEC 000:415.138 - 0.004ms returns 0
T3EEC 000:415.141 JLINK_WriteReg(R4, 0x00000000)
T3EEC 000:415.144 - 0.003ms returns 0
T3EEC 000:415.147 JLINK_WriteReg(R5, 0x00000000)
T3EEC 000:415.149 - 0.003ms returns 0
T3EEC 000:415.152 JLINK_WriteReg(R6, 0x00000000)
T3EEC 000:415.155 - 0.003ms returns 0
T3EEC 000:415.158 JLINK_WriteReg(R7, 0x00000000)
T3EEC 000:415.161 - 0.003ms returns 0
T3EEC 000:415.164 JLINK_WriteReg(R8, 0x00000000)
T3EEC 000:415.166 - 0.003ms returns 0
T3EEC 000:415.169 JLINK_WriteReg(R9, 0x20000160)
T3EEC 000:415.172 - 0.003ms returns 0
T3EEC 000:415.175 JLINK_WriteReg(R10, 0x00000000)
T3EEC 000:415.178 - 0.004ms returns 0
T3EEC 000:415.181 JLINK_WriteReg(R11, 0x00000000)
T3EEC 000:415.183 - 0.003ms returns 0
T3EEC 000:415.189 JLINK_WriteReg(R12, 0x00000000)
T3EEC 000:415.193 - 0.005ms returns 0
T3EEC 000:415.196 JLINK_WriteReg(R13 (SP), 0x20001000)
T3EEC 000:415.199 - 0.004ms returns 0
T3EEC 000:415.202 JLINK_WriteReg(R14, 0x20000001)
T3EEC 000:415.205 - 0.003ms returns 0
T3EEC 000:415.208 JLINK_WriteReg(R15 (PC), 0x2000006A)
T3EEC 000:415.210 - 0.003ms returns 0
T3EEC 000:415.213 JLINK_WriteReg(XPSR, 0x01000000)
T3EEC 000:415.216 - 0.003ms returns 0
T3EEC 000:415.219 JLINK_WriteReg(MSP, 0x20001000)
T3EEC 000:415.222 - 0.003ms returns 0
T3EEC 000:415.225 JLINK_WriteReg(PSP, 0x20001000)
T3EEC 000:415.227 - 0.003ms returns 0
T3EEC 000:415.230 JLINK_WriteReg(CFBP, 0x00000000)
T3EEC 000:415.233 - 0.003ms returns 0
T3EEC 000:415.236 JLINK_SetBPEx(Addr = 0x20000000, Type = 0xFFFFFFF2)
T3EEC 000:415.239 - 0.004ms returns 0x00000007
T3EEC 000:415.243 JLINK_Go()
T3EEC 000:415.249   CPU_ReadMem(4 bytes @ 0xE0001000)
T3EEC 000:417.971 - 2.758ms
T3EEC 000:418.007 JLINK_IsHalted()
T3EEC 000:420.390   CPU_ReadMem(2 bytes @ 0x20000000)
T3EEC 000:420.814 - 2.811ms returns TRUE
T3EEC 000:420.826 JLINK_ReadReg(R15 (PC))
T3EEC 000:420.833 - 0.010ms returns 0x20000000
T3EEC 000:420.841 JLINK_ClrBPEx(BPHandle = 0x00000007)
T3EEC 000:420.847 - 0.008ms returns 0x00
T3EEC 000:420.856 JLINK_ReadReg(R0)
T3EEC 000:420.862 - 0.008ms returns 0x00000000
T3EEC 000:478.246 JLINK_WriteMem(0x20000000, 0x164 Bytes, ...)
T3EEC 000:478.264   Data:  00 BE 0A E0 0D 78 2D 06 68 40 08 24 40 00 00 D3 ...
T3EEC 000:478.289   CPU_WriteMem(356 bytes @ 0x20000000)
T3EEC 000:480.925 - 2.691ms returns 0x164
T3EEC 000:480.968 JLINK_HasError()
T3EEC 000:480.978 JLINK_WriteReg(R0, 0x08000000)
T3EEC 000:480.989 - 0.013ms returns 0
T3EEC 000:480.996 JLINK_WriteReg(R1, 0x007A1200)
T3EEC 000:481.001 - 0.008ms returns 0
T3EEC 000:481.008 JLINK_WriteReg(R2, 0x00000002)
T3EEC 000:481.013 - 0.007ms returns 0
T3EEC 000:481.019 JLINK_WriteReg(R3, 0x00000000)
T3EEC 000:481.024 - 0.007ms returns 0
T3EEC 000:481.030 JLINK_WriteReg(R4, 0x00000000)
T3EEC 000:481.035 - 0.007ms returns 0
T3EEC 000:481.041 JLINK_WriteReg(R5, 0x00000000)
T3EEC 000:481.046 - 0.007ms returns 0
T3EEC 000:481.052 JLINK_WriteReg(R6, 0x00000000)
T3EEC 000:481.057 - 0.007ms returns 0
T3EEC 000:481.063 JLINK_WriteReg(R7, 0x00000000)
T3EEC 000:481.068 - 0.007ms returns 0
T3EEC 000:481.074 JLINK_WriteReg(R8, 0x00000000)
T3EEC 000:481.079 - 0.007ms returns 0
T3EEC 000:481.085 JLINK_WriteReg(R9, 0x20000160)
T3EEC 000:481.090 - 0.007ms returns 0
T3EEC 000:481.096 JLINK_WriteReg(R10, 0x00000000)
T3EEC 000:481.101 - 0.007ms returns 0
T3EEC 000:481.107 JLINK_WriteReg(R11, 0x00000000)
T3EEC 000:481.113 - 0.007ms returns 0
T3EEC 000:481.118 JLINK_WriteReg(R12, 0x00000000)
T3EEC 000:481.123 - 0.007ms returns 0
T3EEC 000:481.129 JLINK_WriteReg(R13 (SP), 0x20001000)
T3EEC 000:481.136 - 0.008ms returns 0
T3EEC 000:481.142 JLINK_WriteReg(R14, 0x20000001)
T3EEC 000:481.147 - 0.007ms returns 0
T3EEC 000:481.153 JLINK_WriteReg(R15 (PC), 0x20000038)
T3EEC 000:481.158 - 0.008ms returns 0
T3EEC 000:481.164 JLINK_WriteReg(XPSR, 0x01000000)
T3EEC 000:481.169 - 0.007ms returns 0
T3EEC 000:481.175 JLINK_WriteReg(MSP, 0x20001000)
T3EEC 000:481.180 - 0.007ms returns 0
T3EEC 000:481.186 JLINK_WriteReg(PSP, 0x20001000)
T3EEC 000:481.191 - 0.007ms returns 0
T3EEC 000:481.197 JLINK_WriteReg(CFBP, 0x00000000)
T3EEC 000:481.202 - 0.007ms returns 0
T3EEC 000:481.208 JLINK_SetBPEx(Addr = 0x20000000, Type = 0xFFFFFFF2)
T3EEC 000:481.220   CPU_ReadMem(2 bytes @ 0x20000000)
T3EEC 000:481.666 - 0.465ms returns 0x00000008
T3EEC 000:481.679 JLINK_Go()
T3EEC 000:481.688   CPU_WriteMem(2 bytes @ 0x20000000)
T3EEC 000:482.162   CPU_ReadMem(4 bytes @ 0xE0001000)
T3EEC 000:484.879 - 3.231ms
T3EEC 000:484.918 JLINK_IsHalted()
T3EEC 000:487.263   CPU_ReadMem(2 bytes @ 0x20000000)
T3EEC 000:487.688 - 2.774ms returns TRUE
T3EEC 000:487.697 JLINK_ReadReg(R15 (PC))
T3EEC 000:487.704 - 0.009ms returns 0x20000000
T3EEC 000:487.710 JLINK_ClrBPEx(BPHandle = 0x00000008)
T3EEC 000:487.720 - 0.015ms returns 0x00
T3EEC 000:487.729 JLINK_ReadReg(R0)
T3EEC 000:487.735 - 0.007ms returns 0x00000000
T3EEC 000:487.975 JLINK_WriteMem(0x20000164, 0x29C Bytes, ...)
T3EEC 000:487.986   Data:  70 10 00 20 CD 01 00 08 5F 0C 00 08 B9 02 00 08 ...
T3EEC 000:488.000   CPU_WriteMem(668 bytes @ 0x20000164)
T3EEC 000:492.391 - 4.425ms returns 0x29C
T3EEC 000:492.407 JLINK_WriteMem(0x20000400, 0x164 Bytes, ...)
T3EEC 000:492.413   Data:  80 51 01 60 18 48 00 68 00 68 80 F3 08 88 61 B6 ...
T3EEC 000:492.428   CPU_WriteMem(356 bytes @ 0x20000400)
T3EEC 000:495.120 - 2.732ms returns 0x164
T3EEC 000:495.146 JLINK_HasError()
T3EEC 000:495.153 JLINK_WriteReg(R0, 0x08000000)
T3EEC 000:495.161 - 0.010ms returns 0
T3EEC 000:495.167 JLINK_WriteReg(R1, 0x00000400)
T3EEC 000:495.172 - 0.007ms returns 0
T3EEC 000:495.178 JLINK_WriteReg(R2, 0x20000164)
T3EEC 000:495.183 - 0.007ms returns 0
T3EEC 000:495.189 JLINK_WriteReg(R3, 0x00000000)
T3EEC 000:495.194 - 0.007ms returns 0
T3EEC 000:495.200 JLINK_WriteReg(R4, 0x00000000)
T3EEC 000:495.205 - 0.007ms returns 0
T3EEC 000:495.210 JLINK_WriteReg(R5, 0x00000000)
T3EEC 000:495.215 - 0.007ms returns 0
T3EEC 000:495.221 JLINK_WriteReg(R6, 0x00000000)
T3EEC 000:495.226 - 0.007ms returns 0
T3EEC 000:495.231 JLINK_WriteReg(R7, 0x00000000)
T3EEC 000:495.236 - 0.007ms returns 0
T3EEC 000:495.242 JLINK_WriteReg(R8, 0x00000000)
T3EEC 000:495.247 - 0.007ms returns 0
T3EEC 000:495.253 JLINK_WriteReg(R9, 0x20000160)
T3EEC 000:495.257 - 0.007ms returns 0
T3EEC 000:495.263 JLINK_WriteReg(R10, 0x00000000)
T3EEC 000:495.268 - 0.007ms returns 0
T3EEC 000:495.274 JLINK_WriteReg(R11, 0x00000000)
T3EEC 000:495.279 - 0.007ms returns 0
T3EEC 000:495.284 JLINK_WriteReg(R12, 0x00000000)
T3EEC 000:495.289 - 0.007ms returns 0
T3EEC 000:495.295 JLINK_WriteReg(R13 (SP), 0x20001000)
T3EEC 000:495.301 - 0.008ms returns 0
T3EEC 000:495.306 JLINK_WriteReg(R14, 0x20000001)
T3EEC 000:495.311 - 0.007ms returns 0
T3EEC 000:495.317 JLINK_WriteReg(R15 (PC), 0x200000F4)
T3EEC 000:495.322 - 0.007ms returns 0
T3EEC 000:495.328 JLINK_WriteReg(XPSR, 0x01000000)
T3EEC 000:495.333 - 0.007ms returns 0
T3EEC 000:495.339 JLINK_WriteReg(MSP, 0x20001000)
T3EEC 000:495.344 - 0.007ms returns 0
T3EEC 000:495.349 JLINK_WriteReg(PSP, 0x20001000)
T3EEC 000:495.354 - 0.007ms returns 0
T3EEC 000:495.360 JLINK_WriteReg(CFBP, 0x00000000)
T3EEC 000:495.365 - 0.007ms returns 0
T3EEC 000:495.371 JLINK_SetBPEx(Addr = 0x20000000, Type = 0xFFFFFFF2)
T3EEC 000:495.377 - 0.008ms returns 0x00000009
T3EEC 000:495.383 JLINK_Go()
T3EEC 000:495.394   CPU_ReadMem(4 bytes @ 0xE0001000)
T3EEC 000:498.169 - 2.791ms
T3EEC 000:498.181 JLINK_IsHalted()
T3EEC 000:498.580 - 0.402ms returns FALSE
T3EEC 000:498.589 JLINK_HasError()
T3EEC 000:502.109 JLINK_IsHalted()
T3EEC 000:502.541 - 0.439ms returns FALSE
T3EEC 000:502.553 JLINK_HasError()
T3EEC 000:504.103 JLINK_IsHalted()
T3EEC 000:504.528 - 0.429ms returns FALSE
T3EEC 000:504.537 JLINK_HasError()
T3EEC 000:505.588 JLINK_IsHalted()
T3EEC 000:506.090 - 0.516ms returns FALSE
T3EEC 000:506.114 JLINK_HasError()
T3EEC 000:507.612 JLINK_IsHalted()
T3EEC 000:508.059 - 0.454ms returns FALSE
T3EEC 000:508.072 JLINK_HasError()
T3EEC 000:509.592 JLINK_IsHalted()
T3EEC 000:510.059 - 0.477ms returns FALSE
T3EEC 000:510.075 JLINK_HasError()
T3EEC 000:511.607 JLINK_IsHalted()
T3EEC 000:512.063 - 0.465ms returns FALSE
T3EEC 000:512.078 JLINK_HasError()
T3EEC 000:513.624 JLINK_IsHalted()
T3EEC 000:514.064 - 0.444ms returns FALSE
T3EEC 000:514.073 JLINK_HasError()
T3EEC 000:515.123 JLINK_IsHalted()
T3EEC 000:515.554 - 0.436ms returns FALSE
T3EEC 000:515.563 JLINK_HasError()
T3EEC 000:517.213 JLINK_IsHalted()
T3EEC 000:517.630 - 0.421ms returns FALSE
T3EEC 000:517.638 JLINK_HasError()
T3EEC 000:519.244 JLINK_IsHalted()
T3EEC 000:519.662 - 0.421ms returns FALSE
T3EEC 000:519.669 JLINK_HasError()
T3EEC 000:520.744 JLINK_IsHalted()
T3EEC 000:521.166 - 0.425ms returns FALSE
T3EEC 000:521.173 JLINK_HasError()
T3EEC 000:522.727 JLINK_IsHalted()
T3EEC 000:523.115 - 0.395ms returns FALSE
T3EEC 000:523.128 JLINK_HasError()
T3EEC 000:525.729 JLINK_IsHalted()
T3EEC 000:526.145 - 0.425ms returns FALSE
T3EEC 000:526.160 JLINK_HasError()
T3EEC 000:527.238 JLINK_IsHalted()
T3EEC 000:527.681 - 0.447ms returns FALSE
T3EEC 000:527.689 JLINK_HasError()
T3EEC 000:529.259 JLINK_IsHalted()
T3EEC 000:531.689   CPU_ReadMem(2 bytes @ 0x20000000)
T3EEC 000:532.123 - 2.868ms returns TRUE
T3EEC 000:532.132 JLINK_ReadReg(R15 (PC))
T3EEC 000:532.139 - 0.009ms returns 0x20000000
T3EEC 000:532.145 JLINK_ClrBPEx(BPHandle = 0x00000009)
T3EEC 000:532.151 - 0.008ms returns 0x00
T3EEC 000:532.157 JLINK_ReadReg(R0)
T3EEC 000:532.163 - 0.007ms returns 0x00000000
T3EEC 000:532.576 JLINK_WriteMem(0x20000164, 0x29C Bytes, ...)
T3EEC 000:532.586   Data:  BA 42 72 D1 DF F8 A0 C1 4D 68 A5 EB 0C 06 65 45 ...
T3EEC 000:532.601   CPU_WriteMem(668 bytes @ 0x20000164)
T3EEC 000:536.980 - 4.410ms returns 0x29C
T3EEC 000:536.991 JLINK_WriteMem(0x20000400, 0x164 Bytes, ...)
T3EEC 000:536.996   Data:  02 23 C3 F1 07 04 04 2C 00 D9 04 24 1D 1D 07 2D ...
T3EEC 000:537.007   CPU_WriteMem(356 bytes @ 0x20000400)
T3EEC 000:539.642 - 2.664ms returns 0x164
T3EEC 000:539.663 JLINK_HasError()
T3EEC 000:539.671 JLINK_WriteReg(R0, 0x08000400)
T3EEC 000:539.682 - 0.014ms returns 0
T3EEC 000:539.690 JLINK_WriteReg(R1, 0x00000400)
T3EEC 000:539.696 - 0.008ms returns 0
T3EEC 000:539.702 JLINK_WriteReg(R2, 0x20000164)
T3EEC 000:539.708 - 0.008ms returns 0
T3EEC 000:539.714 JLINK_WriteReg(R3, 0x00000000)
T3EEC 000:539.719 - 0.008ms returns 0
T3EEC 000:539.726 JLINK_WriteReg(R4, 0x00000000)
T3EEC 000:539.731 - 0.007ms returns 0
T3EEC 000:539.737 JLINK_WriteReg(R5, 0x00000000)
T3EEC 000:539.742 - 0.007ms returns 0
T3EEC 000:539.749 JLINK_WriteReg(R6, 0x00000000)
T3EEC 000:539.754 - 0.008ms returns 0
T3EEC 000:539.760 JLINK_WriteReg(R7, 0x00000000)
T3EEC 000:539.766 - 0.008ms returns 0
T3EEC 000:539.772 JLINK_WriteReg(R8, 0x00000000)
T3EEC 000:539.777 - 0.008ms returns 0
T3EEC 000:539.783 JLINK_WriteReg(R9, 0x20000160)
T3EEC 000:539.789 - 0.008ms returns 0
T3EEC 000:539.795 JLINK_WriteReg(R10, 0x00000000)
T3EEC 000:539.800 - 0.008ms returns 0
T3EEC 000:539.807 JLINK_WriteReg(R11, 0x00000000)
T3EEC 000:539.812 - 0.008ms returns 0
T3EEC 000:539.818 JLINK_WriteReg(R12, 0x00000000)
T3EEC 000:539.824 - 0.008ms returns 0
T3EEC 000:539.830 JLINK_WriteReg(R13 (SP), 0x20001000)
T3EEC 000:539.836 - 0.009ms returns 0
T3EEC 000:539.843 JLINK_WriteReg(R14, 0x20000001)
T3EEC 000:539.848 - 0.008ms returns 0
T3EEC 000:539.854 JLINK_WriteReg(R15 (PC), 0x200000F4)
T3EEC 000:539.860 - 0.008ms returns 0
T3EEC 000:539.866 JLINK_WriteReg(XPSR, 0x01000000)
T3EEC 000:539.871 - 0.008ms returns 0
T3EEC 000:539.878 JLINK_WriteReg(MSP, 0x20001000)
T3EEC 000:539.883 - 0.007ms returns 0
T3EEC 000:539.889 JLINK_WriteReg(PSP, 0x20001000)
T3EEC 000:539.895 - 0.007ms returns 0
T3EEC 000:539.901 JLINK_WriteReg(CFBP, 0x00000000)
T3EEC 000:539.906 - 0.008ms returns 0
T3EEC 000:539.912 JLINK_SetBPEx(Addr = 0x20000000, Type = 0xFFFFFFF2)
T3EEC 000:539.919 - 0.009ms returns 0x0000000A
T3EEC 000:539.925 JLINK_Go()
T3EEC 000:539.940   CPU_ReadMem(4 bytes @ 0xE0001000)
T3EEC 000:542.715 - 2.800ms
T3EEC 000:542.737 JLINK_IsHalted()
T3EEC 000:543.280 - 0.553ms returns FALSE
T3EEC 000:543.298 JLINK_HasError()
T3EEC 000:545.176 JLINK_IsHalted()
T3EEC 000:545.608 - 0.438ms returns FALSE
T3EEC 000:545.621 JLINK_HasError()
T3EEC 000:547.235 JLINK_IsHalted()
T3EEC 000:547.631 - 0.401ms returns FALSE
T3EEC 000:547.642 JLINK_HasError()
T3EEC 000:549.234 JLINK_IsHalted()
T3EEC 000:549.635 - 0.406ms returns FALSE
T3EEC 000:549.647 JLINK_HasError()
T3EEC 000:551.234 JLINK_IsHalted()
T3EEC 000:551.634 - 0.407ms returns FALSE
T3EEC 000:551.648 JLINK_HasError()
T3EEC 000:553.262 JLINK_IsHalted()
T3EEC 000:553.710 - 0.466ms returns FALSE
T3EEC 000:553.736 JLINK_HasError()
T3EEC 000:555.241 JLINK_IsHalted()
T3EEC 000:555.652 - 0.413ms returns FALSE
T3EEC 000:555.657 JLINK_HasError()
T3EEC 000:557.296 JLINK_IsHalted()
T3EEC 000:557.729 - 0.434ms returns FALSE
T3EEC 000:557.733 JLINK_HasError()
T3EEC 000:559.276 JLINK_IsHalted()
T3EEC 000:559.678 - 0.404ms returns FALSE
T3EEC 000:559.683 JLINK_HasError()
T3EEC 000:561.306 JLINK_IsHalted()
T3EEC 000:561.753 - 0.449ms returns FALSE
T3EEC 000:561.757 JLINK_HasError()
T3EEC 000:563.293 JLINK_IsHalted()
T3EEC 000:563.726 - 0.435ms returns FALSE
T3EEC 000:563.730 JLINK_HasError()
T3EEC 000:565.292 JLINK_IsHalted()
T3EEC 000:565.728 - 0.438ms returns FALSE
T3EEC 000:565.732 JLINK_HasError()
T3EEC 000:566.872 JLINK_IsHalted()
T3EEC 000:567.307 - 0.438ms returns FALSE
T3EEC 000:567.313 JLINK_HasError()
T3EEC 000:568.396 JLINK_IsHalted()
T3EEC 000:568.856 - 0.467ms returns FALSE
T3EEC 000:568.869 JLINK_HasError()
T3EEC 000:570.400 JLINK_IsHalted()
T3EEC 000:570.805 - 0.409ms returns FALSE
T3EEC 000:570.814 JLINK_HasError()
T3EEC 000:572.409 JLINK_IsHalted()
T3EEC 000:572.849 - 0.442ms returns FALSE
T3EEC 000:572.854 JLINK_HasError()
T3EEC 000:574.476 JLINK_IsHalted()
T3EEC 000:576.831   CPU_ReadMem(2 bytes @ 0x20000000)
T3EEC 000:577.316 - 2.845ms returns TRUE
T3EEC 000:577.325 JLINK_ReadReg(R15 (PC))
T3EEC 000:577.331 - 0.007ms returns 0x20000000
T3EEC 000:577.334 JLINK_ClrBPEx(BPHandle = 0x0000000A)
T3EEC 000:577.338 - 0.004ms returns 0x00
T3EEC 000:577.341 JLINK_ReadReg(R0)
T3EEC 000:577.344 - 0.004ms returns 0x00000000
T3EEC 000:577.585 JLINK_WriteMem(0x20000164, 0x29C Bytes, ...)
T3EEC 000:577.590   Data:  71 68 08 4A C1 F3 03 11 51 5C C8 40 06 49 08 60 ...
T3EEC 000:577.600   CPU_WriteMem(668 bytes @ 0x20000164)
T3EEC 000:582.014 - 4.438ms returns 0x29C
T3EEC 000:582.038 JLINK_WriteMem(0x20000400, 0x164 Bytes, ...)
T3EEC 000:582.055   Data:  81 1B 59 45 5B D8 28 6A 80 07 F7 D5 0B E0 FF F7 ...
T3EEC 000:582.086   CPU_WriteMem(356 bytes @ 0x20000400)
T3EEC 000:584.660 - 2.631ms returns 0x164
T3EEC 000:584.674 JLINK_HasError()
T3EEC 000:584.678 JLINK_WriteReg(R0, 0x08000800)
T3EEC 000:584.683 - 0.005ms returns 0
T3EEC 000:584.686 JLINK_WriteReg(R1, 0x00000400)
T3EEC 000:584.689 - 0.004ms returns 0
T3EEC 000:584.692 JLINK_WriteReg(R2, 0x20000164)
T3EEC 000:584.694 - 0.003ms returns 0
T3EEC 000:584.697 JLINK_WriteReg(R3, 0x00000000)
T3EEC 000:584.700 - 0.003ms returns 0
T3EEC 000:584.703 JLINK_WriteReg(R4, 0x00000000)
T3EEC 000:584.705 - 0.003ms returns 0
T3EEC 000:584.708 JLINK_WriteReg(R5, 0x00000000)
T3EEC 000:584.711 - 0.003ms returns 0
T3EEC 000:584.714 JLINK_WriteReg(R6, 0x00000000)
T3EEC 000:584.717 - 0.003ms returns 0
T3EEC 000:584.720 JLINK_WriteReg(R7, 0x00000000)
T3EEC 000:584.722 - 0.003ms returns 0
T3EEC 000:584.725 JLINK_WriteReg(R8, 0x00000000)
T3EEC 000:584.728 - 0.003ms returns 0
T3EEC 000:584.731 JLINK_WriteReg(R9, 0x20000160)
T3EEC 000:584.733 - 0.003ms returns 0
T3EEC 000:584.736 JLINK_WriteReg(R10, 0x00000000)
T3EEC 000:584.739 - 0.003ms returns 0
T3EEC 000:584.742 JLINK_WriteReg(R11, 0x00000000)
T3EEC 000:584.745 - 0.003ms returns 0
T3EEC 000:584.748 JLINK_WriteReg(R12, 0x00000000)
T3EEC 000:584.750 - 0.003ms returns 0
T3EEC 000:584.753 JLINK_WriteReg(R13 (SP), 0x20001000)
T3EEC 000:584.756 - 0.004ms returns 0
T3EEC 000:584.759 JLINK_WriteReg(R14, 0x20000001)
T3EEC 000:584.762 - 0.003ms returns 0
T3EEC 000:584.765 JLINK_WriteReg(R15 (PC), 0x200000F4)
T3EEC 000:584.768 - 0.004ms returns 0
T3EEC 000:584.771 JLINK_WriteReg(XPSR, 0x01000000)
T3EEC 000:584.773 - 0.004ms returns 0
T3EEC 000:584.776 JLINK_WriteReg(MSP, 0x20001000)
T3EEC 000:584.779 - 0.003ms returns 0
T3EEC 000:584.782 JLINK_WriteReg(PSP, 0x20001000)
T3EEC 000:584.797 - 0.016ms returns 0
T3EEC 000:584.800 JLINK_WriteReg(CFBP, 0x00000000)
T3EEC 000:584.802 - 0.003ms returns 0
T3EEC 000:584.806 JLINK_SetBPEx(Addr = 0x20000000, Type = 0xFFFFFFF2)
T3EEC 000:584.809 - 0.005ms returns 0x0000000B
T3EEC 000:584.813 JLINK_Go()
T3EEC 000:584.820   CPU_ReadMem(4 bytes @ 0xE0001000)
T3EEC 000:587.452 - 2.665ms
T3EEC 000:587.487 JLINK_IsHalted()
T3EEC 000:587.877 - 0.394ms returns FALSE
T3EEC 000:587.885 JLINK_HasError()
T3EEC 000:589.064 JLINK_IsHalted()
T3EEC 000:589.453 - 0.390ms returns FALSE
T3EEC 000:589.458 JLINK_HasError()
T3EEC 000:591.084 JLINK_IsHalted()
T3EEC 000:591.525 - 0.443ms returns FALSE
T3EEC 000:591.529 JLINK_HasError()
T3EEC 000:592.581 JLINK_IsHalted()
T3EEC 000:592.981 - 0.408ms returns FALSE
T3EEC 000:592.995 JLINK_HasError()
T3EEC 000:594.609 JLINK_IsHalted()
T3EEC 000:595.053 - 0.446ms returns FALSE
T3EEC 000:595.058 JLINK_HasError()
T3EEC 000:596.592 JLINK_IsHalted()
T3EEC 000:597.053 - 0.463ms returns FALSE
T3EEC 000:597.057 JLINK_HasError()
T3EEC 000:598.592 JLINK_IsHalted()
T3EEC 000:599.064 - 0.480ms returns FALSE
T3EEC 000:599.085 JLINK_HasError()
T3EEC 000:600.596 JLINK_IsHalted()
T3EEC 000:601.058 - 0.463ms returns FALSE
T3EEC 000:601.061 JLINK_HasError()
T3EEC 000:602.595 JLINK_IsHalted()
T3EEC 000:603.052 - 0.459ms returns FALSE
T3EEC 000:603.056 JLINK_HasError()
T3EEC 000:604.593 JLINK_IsHalted()
T3EEC 000:605.052 - 0.461ms returns FALSE
T3EEC 000:605.056 JLINK_HasError()
T3EEC 000:606.592 JLINK_IsHalted()
T3EEC 000:607.053 - 0.463ms returns FALSE
T3EEC 000:607.057 JLINK_HasError()
T3EEC 000:608.616 JLINK_IsHalted()
T3EEC 000:609.062 - 0.453ms returns FALSE
T3EEC 000:609.075 JLINK_HasError()
T3EEC 000:610.616 JLINK_IsHalted()
T3EEC 000:611.057 - 0.447ms returns FALSE
T3EEC 000:611.066 JLINK_HasError()
T3EEC 000:612.593 JLINK_IsHalted()
T3EEC 000:613.083 - 0.492ms returns FALSE
T3EEC 000:613.087 JLINK_HasError()
T3EEC 000:614.593 JLINK_IsHalted()
T3EEC 000:615.052 - 0.461ms returns FALSE
T3EEC 000:615.056 JLINK_HasError()
T3EEC 000:616.601 JLINK_IsHalted()
T3EEC 000:617.054 - 0.456ms returns FALSE
T3EEC 000:617.059 JLINK_HasError()
T3EEC 000:618.591 JLINK_IsHalted()
T3EEC 000:621.137   CPU_ReadMem(2 bytes @ 0x20000000)
T3EEC 000:621.595 - 3.012ms returns TRUE
T3EEC 000:621.618 JLINK_ReadReg(R15 (PC))
T3EEC 000:621.638 - 0.021ms returns 0x20000000
T3EEC 000:621.641 JLINK_ClrBPEx(BPHandle = 0x0000000B)
T3EEC 000:621.644 - 0.004ms returns 0x00
T3EEC 000:621.648 JLINK_ReadReg(R0)
T3EEC 000:621.651 - 0.004ms returns 0x00000000
T3EEC 000:621.913 JLINK_WriteMem(0x20000164, 0x29C Bytes, ...)
T3EEC 000:621.918   Data:  80 69 14 4E 00 F0 08 00 4F F4 80 65 04 90 00 22 ...
T3EEC 000:621.927   CPU_WriteMem(668 bytes @ 0x20000164)
T3EEC 000:626.312 - 4.409ms returns 0x29C
T3EEC 000:626.331 JLINK_WriteMem(0x20000400, 0x164 Bytes, ...)
T3EEC 000:626.337   Data:  B7 F9 05 46 30 46 00 F0 B8 F9 28 B1 28 46 FF F7 ...
T3EEC 000:626.352   CPU_WriteMem(356 bytes @ 0x20000400)
T3EEC 000:628.978 - 2.673ms returns 0x164
T3EEC 000:629.022 JLINK_HasError()
T3EEC 000:629.062 JLINK_WriteReg(R0, 0x08000C00)
T3EEC 000:629.068 - 0.007ms returns 0
T3EEC 000:629.072 JLINK_WriteReg(R1, 0x00000400)
T3EEC 000:629.075 - 0.004ms returns 0
T3EEC 000:629.078 JLINK_WriteReg(R2, 0x20000164)
T3EEC 000:629.080 - 0.004ms returns 0
T3EEC 000:629.084 JLINK_WriteReg(R3, 0x00000000)
T3EEC 000:629.086 - 0.003ms returns 0
T3EEC 000:629.089 JLINK_WriteReg(R4, 0x00000000)
T3EEC 000:629.092 - 0.003ms returns 0
T3EEC 000:629.095 JLINK_WriteReg(R5, 0x00000000)
T3EEC 000:629.098 - 0.003ms returns 0
T3EEC 000:629.101 JLINK_WriteReg(R6, 0x00000000)
T3EEC 000:629.103 - 0.003ms returns 0
T3EEC 000:629.106 JLINK_WriteReg(R7, 0x00000000)
T3EEC 000:629.109 - 0.003ms returns 0
T3EEC 000:629.112 JLINK_WriteReg(R8, 0x00000000)
T3EEC 000:629.114 - 0.003ms returns 0
T3EEC 000:629.117 JLINK_WriteReg(R9, 0x20000160)
T3EEC 000:629.120 - 0.003ms returns 0
T3EEC 000:629.123 JLINK_WriteReg(R10, 0x00000000)
T3EEC 000:629.126 - 0.003ms returns 0
T3EEC 000:629.129 JLINK_WriteReg(R11, 0x00000000)
T3EEC 000:629.131 - 0.003ms returns 0
T3EEC 000:629.134 JLINK_WriteReg(R12, 0x00000000)
T3EEC 000:629.137 - 0.003ms returns 0
T3EEC 000:629.140 JLINK_WriteReg(R13 (SP), 0x20001000)
T3EEC 000:629.143 - 0.004ms returns 0
T3EEC 000:629.146 JLINK_WriteReg(R14, 0x20000001)
T3EEC 000:629.149 - 0.003ms returns 0
T3EEC 000:629.152 JLINK_WriteReg(R15 (PC), 0x200000F4)
T3EEC 000:629.154 - 0.003ms returns 0
T3EEC 000:629.160 JLINK_WriteReg(XPSR, 0x01000000)
T3EEC 000:629.165 - 0.006ms returns 0
T3EEC 000:629.168 JLINK_WriteReg(MSP, 0x20001000)
T3EEC 000:629.171 - 0.003ms returns 0
T3EEC 000:629.174 JLINK_WriteReg(PSP, 0x20001000)
T3EEC 000:629.177 - 0.003ms returns 0
T3EEC 000:629.180 JLINK_WriteReg(CFBP, 0x00000000)
T3EEC 000:629.182 - 0.003ms returns 0
T3EEC 000:629.185 JLINK_SetBPEx(Addr = 0x20000000, Type = 0xFFFFFFF2)
T3EEC 000:629.189 - 0.004ms returns 0x0000000C
T3EEC 000:629.192 JLINK_Go()
T3EEC 000:629.200   CPU_ReadMem(4 bytes @ 0xE0001000)
T3EEC 000:631.844 - 2.661ms
T3EEC 000:631.867 JLINK_IsHalted()
T3EEC 000:632.276 - 0.410ms returns FALSE
T3EEC 000:632.280 JLINK_HasError()
T3EEC 000:633.853 JLINK_IsHalted()
T3EEC 000:634.307 - 0.456ms returns FALSE
T3EEC 000:634.312 JLINK_HasError()
T3EEC 000:635.841 JLINK_IsHalted()
T3EEC 000:636.276 - 0.438ms returns FALSE
T3EEC 000:636.281 JLINK_HasError()
T3EEC 000:637.805 JLINK_IsHalted()
T3EEC 000:638.197 - 0.393ms returns FALSE
T3EEC 000:638.201 JLINK_HasError()
T3EEC 000:639.823 JLINK_IsHalted()
T3EEC 000:640.278 - 0.456ms returns FALSE
T3EEC 000:640.282 JLINK_HasError()
T3EEC 000:641.824 JLINK_IsHalted()
T3EEC 000:642.314 - 0.497ms returns FALSE
T3EEC 000:642.327 JLINK_HasError()
T3EEC 000:643.853 JLINK_IsHalted()
T3EEC 000:644.283 - 0.436ms returns FALSE
T3EEC 000:644.295 JLINK_HasError()
T3EEC 000:645.844 JLINK_IsHalted()
T3EEC 000:646.279 - 0.439ms returns FALSE
T3EEC 000:646.288 JLINK_HasError()
T3EEC 000:647.830 JLINK_IsHalted()
T3EEC 000:648.282 - 0.458ms returns FALSE
T3EEC 000:648.294 JLINK_HasError()
T3EEC 000:649.842 JLINK_IsHalted()
T3EEC 000:650.280 - 0.442ms returns FALSE
T3EEC 000:650.288 JLINK_HasError()
T3EEC 000:651.827 JLINK_IsHalted()
T3EEC 000:652.282 - 0.458ms returns FALSE
T3EEC 000:652.290 JLINK_HasError()
T3EEC 000:653.828 JLINK_IsHalted()
T3EEC 000:654.278 - 0.453ms returns FALSE
